Logging started @ 2023-05-17 11:45
DLL version: V7.86h, Compiled: Apr 12 2023 16:10:23
T73CC 002:479.863   Firmware: J-Link V1n compiled Apr 13 2023 17:39:21
T73CC 002:480.231   Firmware: J-Link V1n compiled Apr 13 2023 17:39:21
T73CC 002:482.730   Hardware: V11.00
T73CC 002:482.742   S/N: 4294967295
T73CC 002:482.746   OEM: SEGGER
T73CC 002:482.750   Feature(s): GDB, RDI, FlashBP, FlashDL, JFlash
T73CC 002:484.052   TELNET listener socket opened on port 19021
T73CC 002:484.156   WEBSRV WEBSRV_Init(): Starting webserver thread(s)
T73CC 002:484.360   WEBSRV Webserver running on local port 19080
T73CC 002:495.218 - 16.436ms returns "O.K."
T73CC 002:495.545 JLINK_ExecCommand("ProjectFile = F:\Zigbee_communication\swr\settings\zr_sw_CC1352P_2_LAUNCHXL_tirtos7_iar_default.jlink", ...). 
T73CC 002:504.354   Ref file found at: C:\Program Files\IAR Systems\Embedded Workbench 9.0\arm\bin\JLinkDevices.ref
T73CC 002:504.416   REF file references invalid XML file: C:\Program Files\SEGGER\JLink\JLinkDevices.xml
T73CC 002:504.483 - 8.939ms returns 0x00
T73CC 002:504.561 JLINK_ExecCommand("device = CC1352P1F3", ...). 
T73CC 002:504.845   Device "CC1352P1F3" selected.
T73CC 002:505.013 - 0.447ms returns 0x00
T73CC 002:505.021 JLINK_GetDLLVersion()
T73CC 002:505.024 - 0.003ms returns 78608
T73CC 002:505.036 JLINK_GetCompileDateTime()
T73CC 002:505.039 - 0.003ms
T73CC 002:505.089 JLINK_GetFirmwareString(...)
T73CC 002:505.093 - 0.003ms
T73CC 002:505.111 JLINK_TIF_Select(JLINKARM_TIF_CJTAG)
T73CC 002:527.399 - 22.291ms returns 0x00
T73CC 002:527.463 JLINK_SelectDeviceFamily(14)
T73CC 002:527.468 - 0.005ms
T73CC 002:527.491 JLINK_SetSpeed(1000)
T73CC 002:527.541 - 0.050ms
T73CC 002:527.550 JLINK_SetResetType(JLINKARM_RESET_TYPE_ADI)
T73CC 002:527.553 - 0.004ms returns JLINKARM_RESET_TYPE_NORMAL
T73CC 002:527.558 JLINK_ExecCommand("SetResetPulseLen = 200", ...). 
T73CC 002:527.564 - 0.001ms returns 0x14
T73CC 002:527.567 JLINK_SetResetDelay(0)
T73CC 002:527.570 - 0.003ms
T73CC 002:527.573 JLINK_ResetPullsRESET(ON)
T73CC 002:527.576 - 0.003ms
T73CC 002:527.580 JLINK_Reset()
T73CC 002:549.062   InitTarget: Found ICE-Pick with ID: 0x3BB4102F
T73CC 002:550.735   InitTarget: Found CPU TAP 0x4BA00477
T73CC 002:550.764   Performing special handling for buggy IAR EWARM versions that pass <IRPre> == 0 and <DRPre> == 0 even if auto-detection for JTAG chain has been selected by the user
T73CC 002:554.868   DPv0 detected
T73CC 002:554.896   Scanning AP map to find all available APs
T73CC 002:556.434   AP[1]: Stopped AP scan as end of AP map has been reached
T73CC 002:556.457   AP[0]: AHB-AP (IDR: 0x24770011)
T73CC 002:556.470   Iterating through AP map to find AHB-AP to use
T73CC 002:558.866   AP[0]: Core found
T73CC 002:558.879   AP[0]: AHB-AP ROM base: 0xE00FF000
T73CC 002:560.095   CPUID register: 0x410FC241. Implementer code: 0x41 (ARM)
T73CC 002:560.110   Found Cortex-M4 r0p1, Little endian.
T73CC 002:560.483   -- Max. mem block: 0x00004328
T73CC 002:561.571   CPU_ReadMem(4 bytes @ 0xE000EDF0)
T73CC 002:563.375   CPU_WriteMem(4 bytes @ 0xE000EDF0)
T73CC 002:564.601   CPU_ReadMem(4 bytes @ 0xE0002000)
T73CC 002:566.403   FPUnit: 6 code (BP) slots and 2 literal slots
T73CC 002:566.410   CPU_ReadMem(4 bytes @ 0xE000EDFC)
T73CC 002:568.111   CPU_WriteMem(4 bytes @ 0xE000EDFC)
T73CC 002:569.414   CPU_ReadMem(4 bytes @ 0xE0001000)
T73CC 002:571.219   CPU_WriteMem(4 bytes @ 0xE0001000)
T73CC 002:572.518   CPU_ReadMem(4 bytes @ 0xE000ED88)
T73CC 002:574.237   CPU_WriteMem(4 bytes @ 0xE000ED88)
T73CC 002:575.489   CPU_ReadMem(4 bytes @ 0xE000ED88)
T73CC 002:577.242   CPU_WriteMem(4 bytes @ 0xE000ED88)
T73CC 002:578.708   CoreSight components:
T73CC 002:578.729   ROMTbl[0] @ E00FF000
T73CC 002:578.733   CPU_ReadMem(64 bytes @ 0xE00FF000)
T73CC 002:583.019   CPU_ReadMem(32 bytes @ 0xE000EFE0)
T73CC 002:586.254   [0][0]: E000E000 CID B105E00D PID 000BB00C SCS-M7
T73CC 002:586.267   CPU_ReadMem(32 bytes @ 0xE0001FE0)
T73CC 002:589.344   [0][1]: E0001000 CID B105E00D PID 003BB002 DWT
T73CC 002:589.356   CPU_ReadMem(32 bytes @ 0xE0002FE0)
T73CC 002:592.386   [0][2]: E0002000 CID B105E00D PID 002BB003 FPB
T73CC 002:592.397   CPU_ReadMem(32 bytes @ 0xE0000FE0)
T73CC 002:595.417   [0][3]: E0000000 CID B105E00D PID 003BB001 ITM
T73CC 002:595.428   CPU_ReadMem(32 bytes @ 0xE0040FE0)
T73CC 002:598.330   [0][4]: E0040000 CID B105900D PID 000BB9A1 TPIU
T73CC 002:754.402   CPU_WriteMem(4 bytes @ 0xE0002000)
T73CC 002:755.990   CPU_ReadMem(4 bytes @ 0xE000EDFC)
T73CC 002:758.015   CPU_ReadMem(4 bytes @ 0xE0001000)
T73CC 002:760.056 - 232.480ms
T73CC 002:760.177 JLINK_IsHalted()
T73CC 002:760.184 - 0.007ms returns TRUE
T73CC 002:760.188 JLINK_Halt()
T73CC 002:760.191 - 0.003ms returns 0x00
T73CC 002:761.273 JLINK_ExecCommand("InvalidateCache", ...). 
T73CC 002:761.290 - 0.006ms returns 0x00
T73CC 002:761.296 JLINK_ReadMemU32(0xE000ED00, 0x1 Items)
T73CC 002:761.307   CPU_ReadMem(4 bytes @ 0xE000ED00)
T73CC 002:763.354   Data:  41 C2 0F 41
T73CC 002:763.365   Debug reg: CPUID
T73CC 002:763.368 - 2.072ms returns 1 (0x1)
T73CC 002:763.377 JLINK_ReadMemU32(0xE00FF000, 0x1 Items)
T73CC 002:763.383   CPU_ReadMem(4 bytes @ 0xE00FF000)
T73CC 002:765.376   Data:  03 F0 F0 FF
T73CC 002:765.387 - 2.010ms returns 1 (0x1)
T73CC 002:765.395 JLINK_ReadMemU32(0xE00FF004, 0x1 Items)
T73CC 002:765.401   CPU_ReadMem(4 bytes @ 0xE00FF004)
T73CC 002:767.447   Data:  03 20 F0 FF
T73CC 002:767.458 - 2.063ms returns 1 (0x1)
T73CC 002:767.465 JLINK_ReadMemU32(0xE00FF008, 0x1 Items)
T73CC 002:767.471   CPU_ReadMem(4 bytes @ 0xE00FF008)
T73CC 002:769.333   Data:  03 30 F0 FF
T73CC 002:769.374 - 1.908ms returns 1 (0x1)
T73CC 002:769.381 JLINK_ReadMemU32(0xE00FF00C, 0x1 Items)
T73CC 002:769.386   CPU_ReadMem(4 bytes @ 0xE00FF00C)
T73CC 002:771.231   Data:  03 10 F0 FF
T73CC 002:771.236 - 1.855ms returns 1 (0x1)
T73CC 002:771.242 JLINK_ReadMemU32(0xE00FF010, 0x1 Items)
T73CC 002:771.246   CPU_ReadMem(4 bytes @ 0xE00FF010)
T73CC 002:773.091   Data:  03 10 F4 FF
T73CC 002:773.095 - 1.853ms returns 1 (0x1)
T73CC 002:773.100 JLINK_ReadMemU32(0xE00FF014, 0x1 Items)
T73CC 002:773.104   CPU_ReadMem(4 bytes @ 0xE00FF014)
T73CC 002:774.935   Data:  02 20 F4 FF
T73CC 002:774.943 - 1.843ms returns 1 (0x1)
T73CC 002:774.950 JLINK_ReadMemU32(0xE00FF018, 0x1 Items)
T73CC 002:774.956   CPU_ReadMem(4 bytes @ 0xE00FF018)
T73CC 002:776.851   Data:  00 00 00 00
T73CC 002:776.856 - 1.906ms returns 1 (0x1)
T73CC 002:776.861 JLINK_ReadMemU32(0xE00FFFD0, 0x1 Items)
T73CC 002:776.865   CPU_ReadMem(4 bytes @ 0xE00FFFD0)
T73CC 002:778.756   Data:  04 00 00 00
T73CC 002:778.761 - 1.900ms returns 1 (0x1)
T73CC 002:778.766 JLINK_ReadMemU32(0xE00FFFD4, 0x1 Items)
T73CC 002:778.771   CPU_ReadMem(4 bytes @ 0xE00FFFD4)
T73CC 002:780.623   Data:  00 00 00 00
T73CC 002:780.631 - 1.865ms returns 1 (0x1)
T73CC 002:780.638 JLINK_ReadMemU32(0xE00FFFD8, 0x1 Items)
T73CC 002:780.643   CPU_ReadMem(4 bytes @ 0xE00FFFD8)
T73CC 002:782.594   Data:  00 00 00 00
T73CC 002:782.599 - 1.961ms returns 1 (0x1)
T73CC 002:782.604 JLINK_ReadMemU32(0xE00FFFDC, 0x1 Items)
T73CC 002:782.609   CPU_ReadMem(4 bytes @ 0xE00FFFDC)
T73CC 002:784.494   Data:  00 00 00 00
T73CC 002:784.498 - 1.894ms returns 1 (0x1)
T73CC 002:784.503 JLINK_ReadMemU32(0xE00FFFE0, 0x1 Items)
T73CC 002:784.507   CPU_ReadMem(4 bytes @ 0xE00FFFE0)
T73CC 002:786.267   Data:  C4 00 00 00
T73CC 002:786.274 - 1.770ms returns 1 (0x1)
T73CC 002:786.296 JLINK_ReadMemU32(0xE00FFFE4, 0x1 Items)
T73CC 002:786.302   CPU_ReadMem(4 bytes @ 0xE00FFFE4)
T73CC 002:788.022   Data:  B4 00 00 00
T73CC 002:788.029 - 1.733ms returns 1 (0x1)
T73CC 002:788.035 JLINK_ReadMemU32(0xE00FFFE8, 0x1 Items)
T73CC 002:788.040   CPU_ReadMem(4 bytes @ 0xE00FFFE8)
T73CC 002:789.828   Data:  0B 00 00 00
T73CC 002:789.839 - 1.803ms returns 1 (0x1)
T73CC 002:789.846 JLINK_ReadMemU32(0xE00FFFEC, 0x1 Items)
T73CC 002:789.852   CPU_ReadMem(4 bytes @ 0xE00FFFEC)
T73CC 002:791.778   Data:  00 00 00 00
T73CC 002:791.788 - 1.942ms returns 1 (0x1)
T73CC 002:791.796 JLINK_ReadMemU32(0xE00FFFF0, 0x1 Items)
T73CC 002:791.805   CPU_ReadMem(4 bytes @ 0xE00FFFF0)
T73CC 002:793.712   Data:  0D 00 00 00
T73CC 002:793.719 - 1.924ms returns 1 (0x1)
T73CC 002:793.726 JLINK_ReadMemU32(0xE00FFFF4, 0x1 Items)
T73CC 002:793.731   CPU_ReadMem(4 bytes @ 0xE00FFFF4)
T73CC 002:795.651   Data:  10 00 00 00
T73CC 002:795.655 - 1.929ms returns 1 (0x1)
T73CC 002:795.661 JLINK_ReadMemU32(0xE00FFFF8, 0x1 Items)
T73CC 002:795.665   CPU_ReadMem(4 bytes @ 0xE00FFFF8)
T73CC 002:797.551   Data:  05 00 00 00
T73CC 002:797.555 - 1.895ms returns 1 (0x1)
T73CC 002:797.560 JLINK_ReadMemU32(0xE00FFFFC, 0x1 Items)
T73CC 002:797.564   CPU_ReadMem(4 bytes @ 0xE00FFFFC)
T73CC 002:799.512   Data:  B1 00 00 00
T73CC 002:799.521 - 1.960ms returns 1 (0x1)
T73CC 002:799.527 JLINK_ReadMemU32(0xE000EFD0, 0x1 Items)
T73CC 002:799.532   CPU_ReadMem(4 bytes @ 0xE000EFD0)
T73CC 002:801.423   Data:  04 00 00 00
T73CC 002:801.427 - 1.900ms returns 1 (0x1)
T73CC 002:801.433 JLINK_ReadMemU32(0xE000EFD4, 0x1 Items)
T73CC 002:801.437   CPU_ReadMem(4 bytes @ 0xE000EFD4)
T73CC 002:803.347   Data:  00 00 00 00
T73CC 002:803.351 - 1.918ms returns 1 (0x1)
T73CC 002:803.356 JLINK_ReadMemU32(0xE000EFD8, 0x1 Items)
T73CC 002:803.360   CPU_ReadMem(4 bytes @ 0xE000EFD8)
T73CC 002:805.271   Data:  00 00 00 00
T73CC 002:805.279 - 1.923ms returns 1 (0x1)
T73CC 002:805.286 JLINK_ReadMemU32(0xE000EFDC, 0x1 Items)
T73CC 002:805.291   CPU_ReadMem(4 bytes @ 0xE000EFDC)
T73CC 002:807.096   Data:  00 00 00 00
T73CC 002:807.105 - 1.819ms returns 1 (0x1)
T73CC 002:807.112 JLINK_ReadMemU32(0xE000EFE0, 0x1 Items)
T73CC 002:807.118   CPU_ReadMem(4 bytes @ 0xE000EFE0)
T73CC 002:808.972   Data:  0C 00 00 00
T73CC 002:808.978 - 1.866ms returns 1 (0x1)
T73CC 002:808.984 JLINK_ReadMemU32(0xE000EFE4, 0x1 Items)
T73CC 002:808.988   CPU_ReadMem(4 bytes @ 0xE000EFE4)
T73CC 002:810.816   Data:  B0 00 00 00
T73CC 002:810.824 - 1.840ms returns 1 (0x1)
T73CC 002:810.830 JLINK_ReadMemU32(0xE000EFE8, 0x1 Items)
T73CC 002:810.836   CPU_ReadMem(4 bytes @ 0xE000EFE8)
T73CC 002:812.730   Data:  0B 00 00 00
T73CC 002:812.740 - 1.910ms returns 1 (0x1)
T73CC 002:812.749 JLINK_ReadMemU32(0xE000EFEC, 0x1 Items)
T73CC 002:812.754   CPU_ReadMem(4 bytes @ 0xE000EFEC)
T73CC 002:814.646   Data:  00 00 00 00
T73CC 002:814.660 - 1.911ms returns 1 (0x1)
T73CC 002:814.669 JLINK_ReadMemU32(0xE000EFF0, 0x1 Items)
T73CC 002:814.673   CPU_ReadMem(4 bytes @ 0xE000EFF0)
T73CC 002:816.455   Data:  0D 00 00 00
T73CC 002:816.464 - 1.795ms returns 1 (0x1)
T73CC 002:816.470 JLINK_ReadMemU32(0xE000EFF4, 0x1 Items)
T73CC 002:816.474   CPU_ReadMem(4 bytes @ 0xE000EFF4)
T73CC 002:818.411   Data:  E0 00 00 00
T73CC 002:818.419 - 1.949ms returns 1 (0x1)
T73CC 002:818.430 JLINK_ReadMemU32(0xE000EFF8, 0x1 Items)
T73CC 002:818.435   CPU_ReadMem(4 bytes @ 0xE000EFF8)
T73CC 002:820.317   Data:  05 00 00 00
T73CC 002:820.321 - 1.891ms returns 1 (0x1)
T73CC 002:820.330 JLINK_ReadMemU32(0xE000EFFC, 0x1 Items)
T73CC 002:820.335   CPU_ReadMem(4 bytes @ 0xE000EFFC)
T73CC 002:822.276   Data:  B1 00 00 00
T73CC 002:822.286 - 1.956ms returns 1 (0x1)
T73CC 002:822.297 JLINK_ReadMemU32(0xE0001FD0, 0x1 Items)
T73CC 002:822.303   CPU_ReadMem(4 bytes @ 0xE0001FD0)
T73CC 002:824.106   Data:  04 00 00 00
T73CC 002:824.115   Debug reg: DWT_PID4
T73CC 002:824.118 - 1.821ms returns 1 (0x1)
T73CC 002:824.127 JLINK_ReadMemU32(0xE0001FD4, 0x1 Items)
T73CC 002:824.133   CPU_ReadMem(4 bytes @ 0xE0001FD4)
T73CC 002:825.936   Data:  00 00 00 00
T73CC 002:825.940   Debug reg: DWT_PID5
T73CC 002:825.944 - 1.817ms returns 1 (0x1)
T73CC 002:825.950 JLINK_ReadMemU32(0xE0001FD8, 0x1 Items)
T73CC 002:825.955   CPU_ReadMem(4 bytes @ 0xE0001FD8)
T73CC 002:827.888   Data:  00 00 00 00
T73CC 002:827.895   Debug reg: DWT_PID6
T73CC 002:827.898 - 1.948ms returns 1 (0x1)
T73CC 002:827.904 JLINK_ReadMemU32(0xE0001FDC, 0x1 Items)
T73CC 002:827.908   CPU_ReadMem(4 bytes @ 0xE0001FDC)
T73CC 002:829.757   Data:  00 00 00 00
T73CC 002:829.765   Debug reg: DWT_PID7
T73CC 002:829.768 - 1.864ms returns 1 (0x1)
T73CC 002:829.777 JLINK_ReadMemU32(0xE0001FE0, 0x1 Items)
T73CC 002:829.786   CPU_ReadMem(4 bytes @ 0xE0001FE0)
T73CC 002:831.672   Data:  02 00 00 00
T73CC 002:831.681   Debug reg: DWT_PID[0]
T73CC 002:831.684 - 1.907ms returns 1 (0x1)
T73CC 002:831.694 JLINK_ReadMemU32(0xE0001FE4, 0x1 Items)
T73CC 002:831.699   CPU_ReadMem(4 bytes @ 0xE0001FE4)
T73CC 002:833.594   Data:  B0 00 00 00
T73CC 002:833.598   Debug reg: DWT_PID[1]
T73CC 002:833.602 - 1.908ms returns 1 (0x1)
T73CC 002:833.611 JLINK_ReadMemU32(0xE0001FE8, 0x1 Items)
T73CC 002:833.616   CPU_ReadMem(4 bytes @ 0xE0001FE8)
T73CC 002:835.508   Data:  3B 00 00 00
T73CC 002:835.517   Debug reg: DWT_PID[2]
T73CC 002:835.520 - 1.909ms returns 1 (0x1)
T73CC 002:835.530 JLINK_ReadMemU32(0xE0001FEC, 0x1 Items)
T73CC 002:835.535   CPU_ReadMem(4 bytes @ 0xE0001FEC)
T73CC 002:837.332   Data:  00 00 00 00
T73CC 002:837.340   Debug reg: DWT_PID[3]
T73CC 002:837.343 - 1.813ms returns 1 (0x1)
T73CC 002:837.350 JLINK_ReadMemU32(0xE0001FF0, 0x1 Items)
T73CC 002:837.355   CPU_ReadMem(4 bytes @ 0xE0001FF0)
T73CC 002:839.228   Data:  0D 00 00 00
T73CC 002:839.236   Debug reg: DWT_CID[0]
T73CC 002:839.240 - 1.889ms returns 1 (0x1)
T73CC 002:839.251 JLINK_ReadMemU32(0xE0001FF4, 0x1 Items)
T73CC 002:839.257   CPU_ReadMem(4 bytes @ 0xE0001FF4)
T73CC 002:841.070   Data:  E0 00 00 00
T73CC 002:841.081   Debug reg: DWT_CID[1]
T73CC 002:841.084 - 1.833ms returns 1 (0x1)
T73CC 002:841.092 JLINK_ReadMemU32(0xE0001FF8, 0x1 Items)
T73CC 002:841.098   CPU_ReadMem(4 bytes @ 0xE0001FF8)
T73CC 002:843.014   Data:  05 00 00 00
T73CC 002:843.027   Debug reg: DWT_CID[2]
T73CC 002:843.030 - 1.938ms returns 1 (0x1)
T73CC 002:843.042 JLINK_ReadMemU32(0xE0001FFC, 0x1 Items)
T73CC 002:843.048   CPU_ReadMem(4 bytes @ 0xE0001FFC)
T73CC 002:844.927   Data:  B1 00 00 00
T73CC 002:844.936   Debug reg: DWT_CID[3]
T73CC 002:844.939 - 1.897ms returns 1 (0x1)
T73CC 002:844.948 JLINK_ReadMemU32(0xE0002FD0, 0x1 Items)
T73CC 002:844.953   CPU_ReadMem(4 bytes @ 0xE0002FD0)
T73CC 002:846.815   Data:  04 00 00 00
T73CC 002:846.830   Debug reg: FP_PID4
T73CC 002:846.833 - 1.885ms returns 1 (0x1)
T73CC 002:846.839 JLINK_ReadMemU32(0xE0002FD4, 0x1 Items)
T73CC 002:846.843   CPU_ReadMem(4 bytes @ 0xE0002FD4)
T73CC 002:848.796   Data:  00 00 00 00
T73CC 002:848.804   Debug reg: FP_PID5
T73CC 002:848.807 - 1.968ms returns 1 (0x1)
T73CC 002:848.817 JLINK_ReadMemU32(0xE0002FD8, 0x1 Items)
T73CC 002:848.822   CPU_ReadMem(4 bytes @ 0xE0002FD8)
T73CC 002:850.741   Data:  00 00 00 00
T73CC 002:850.746   Debug reg: FP_PID6
T73CC 002:850.748 - 1.931ms returns 1 (0x1)
T73CC 002:850.758 JLINK_ReadMemU32(0xE0002FDC, 0x1 Items)
T73CC 002:850.762   CPU_ReadMem(4 bytes @ 0xE0002FDC)
T73CC 002:852.654   Data:  00 00 00 00
T73CC 002:852.661   Debug reg: FP_PID7
T73CC 002:852.664 - 1.906ms returns 1 (0x1)
T73CC 002:852.674 JLINK_ReadMemU32(0xE0002FE0, 0x1 Items)
T73CC 002:852.679   CPU_ReadMem(4 bytes @ 0xE0002FE0)
T73CC 002:854.545   Data:  03 00 00 00
T73CC 002:854.559   Debug reg: FP_PID[0]
T73CC 002:854.562 - 1.888ms returns 1 (0x1)
T73CC 002:854.573 JLINK_ReadMemU32(0xE0002FE4, 0x1 Items)
T73CC 002:854.580   CPU_ReadMem(4 bytes @ 0xE0002FE4)
T73CC 002:856.486   Data:  B0 00 00 00
T73CC 002:856.492   Debug reg: FP_PID[1]
T73CC 002:856.495 - 1.922ms returns 1 (0x1)
T73CC 002:856.505 JLINK_ReadMemU32(0xE0002FE8, 0x1 Items)
T73CC 002:856.510   CPU_ReadMem(4 bytes @ 0xE0002FE8)
T73CC 002:858.310   Data:  2B 00 00 00
T73CC 002:858.315   Debug reg: FP_PID[2]
T73CC 002:858.318 - 1.812ms returns 1 (0x1)
T73CC 002:858.326 JLINK_ReadMemU32(0xE0002FEC, 0x1 Items)
T73CC 002:858.331   CPU_ReadMem(4 bytes @ 0xE0002FEC)
T73CC 002:860.205   Data:  00 00 00 00
T73CC 002:860.215   Debug reg: FP_PID[3]
T73CC 002:860.218 - 1.892ms returns 1 (0x1)
T73CC 002:860.246 JLINK_ReadMemU32(0xE0002FF0, 0x1 Items)
T73CC 002:860.254   CPU_ReadMem(4 bytes @ 0xE0002FF0)
T73CC 002:862.151   Data:  0D 00 00 00
T73CC 002:862.165   Debug reg: FP_CID[0]
T73CC 002:862.168 - 1.922ms returns 1 (0x1)
T73CC 002:862.177 JLINK_ReadMemU32(0xE0002FF4, 0x1 Items)
T73CC 002:862.217   CPU_ReadMem(4 bytes @ 0xE0002FF4)
T73CC 002:864.063   Data:  E0 00 00 00
T73CC 002:864.068   Debug reg: FP_CID[1]
T73CC 002:864.071 - 1.894ms returns 1 (0x1)
T73CC 002:864.077 JLINK_ReadMemU32(0xE0002FF8, 0x1 Items)
T73CC 002:864.082   CPU_ReadMem(4 bytes @ 0xE0002FF8)
T73CC 002:865.973   Data:  05 00 00 00
T73CC 002:865.983   Debug reg: FP_CID[2]
T73CC 002:865.986 - 1.908ms returns 1 (0x1)
T73CC 002:865.993 JLINK_ReadMemU32(0xE0002FFC, 0x1 Items)
T73CC 002:865.998   CPU_ReadMem(4 bytes @ 0xE0002FFC)
T73CC 002:867.878   Data:  B1 00 00 00
T73CC 002:867.887   Debug reg: FP_CID[3]
T73CC 002:867.890 - 1.898ms returns 1 (0x1)
T73CC 002:867.897 JLINK_ReadMemU32(0xE0000FD0, 0x1 Items)
T73CC 002:867.903   CPU_ReadMem(4 bytes @ 0xE0000FD0)
T73CC 002:869.724   Data:  04 00 00 00
T73CC 002:869.732   Debug reg: ITM_PID4
T73CC 002:869.736 - 1.838ms returns 1 (0x1)
T73CC 002:869.742 JLINK_ReadMemU32(0xE0000FD4, 0x1 Items)
T73CC 002:869.748   CPU_ReadMem(4 bytes @ 0xE0000FD4)
T73CC 002:871.659   Data:  00 00 00 00
T73CC 002:871.668   Debug reg: ITM_PID5
T73CC 002:871.670 - 1.928ms returns 1 (0x1)
T73CC 002:871.677 JLINK_ReadMemU32(0xE0000FD8, 0x1 Items)
T73CC 002:871.682   CPU_ReadMem(4 bytes @ 0xE0000FD8)
T73CC 002:873.592   Data:  00 00 00 00
T73CC 002:873.596   Debug reg: ITM_PID6
T73CC 002:873.599 - 1.921ms returns 1 (0x1)
T73CC 002:873.604 JLINK_ReadMemU32(0xE0000FDC, 0x1 Items)
T73CC 002:873.608   CPU_ReadMem(4 bytes @ 0xE0000FDC)
T73CC 002:875.503   Data:  00 00 00 00
T73CC 002:875.518   Debug reg: ITM_PID7
T73CC 002:875.520 - 1.916ms returns 1 (0x1)
T73CC 002:875.525 JLINK_ReadMemU32(0xE0000FE0, 0x1 Items)
T73CC 002:875.529   CPU_ReadMem(4 bytes @ 0xE0000FE0)
T73CC 002:877.290   Data:  01 00 00 00
T73CC 002:877.298   Debug reg: ITM_PID[0]
T73CC 002:877.301 - 1.775ms returns 1 (0x1)
T73CC 002:877.307 JLINK_ReadMemU32(0xE0000FE4, 0x1 Items)
T73CC 002:877.312   CPU_ReadMem(4 bytes @ 0xE0000FE4)
T73CC 002:879.119   Data:  B0 00 00 00
T73CC 002:879.125   Debug reg: ITM_PID[1]
T73CC 002:879.128 - 1.821ms returns 1 (0x1)
T73CC 002:879.134 JLINK_ReadMemU32(0xE0000FE8, 0x1 Items)
T73CC 002:879.139   CPU_ReadMem(4 bytes @ 0xE0000FE8)
T73CC 002:880.991   Data:  3B 00 00 00
T73CC 002:880.995   Debug reg: ITM_PID[2]
T73CC 002:880.998 - 1.864ms returns 1 (0x1)
T73CC 002:881.003 JLINK_ReadMemU32(0xE0000FEC, 0x1 Items)
T73CC 002:881.008   CPU_ReadMem(4 bytes @ 0xE0000FEC)
T73CC 002:882.905   Data:  00 00 00 00
T73CC 002:882.916   Debug reg: ITM_PID[3]
T73CC 002:882.919 - 1.916ms returns 1 (0x1)
T73CC 002:882.926 JLINK_ReadMemU32(0xE0000FF0, 0x1 Items)
T73CC 002:882.932   CPU_ReadMem(4 bytes @ 0xE0000FF0)
T73CC 002:884.726   Data:  0D 00 00 00
T73CC 002:884.735   Debug reg: ITM_CID[0]
T73CC 002:884.738 - 1.811ms returns 1 (0x1)
T73CC 002:884.745 JLINK_ReadMemU32(0xE0000FF4, 0x1 Items)
T73CC 002:884.750   CPU_ReadMem(4 bytes @ 0xE0000FF4)
T73CC 002:886.638   Data:  E0 00 00 00
T73CC 002:886.645   Debug reg: ITM_CID[1]
T73CC 002:886.648 - 1.903ms returns 1 (0x1)
T73CC 002:886.657 JLINK_ReadMemU32(0xE0000FF8, 0x1 Items)
T73CC 002:886.662   CPU_ReadMem(4 bytes @ 0xE0000FF8)
T73CC 002:888.558   Data:  05 00 00 00
T73CC 002:888.564   Debug reg: ITM_CID[2]
T73CC 002:888.566 - 1.910ms returns 1 (0x1)
T73CC 002:888.574 JLINK_ReadMemU32(0xE0000FFC, 0x1 Items)
T73CC 002:888.580   CPU_ReadMem(4 bytes @ 0xE0000FFC)
T73CC 002:890.515   Data:  B1 00 00 00
T73CC 002:890.523   Debug reg: ITM_CID[3]
T73CC 002:890.526 - 1.951ms returns 1 (0x1)
T73CC 002:890.534 JLINK_ReadMemU32(0xE0040FD0, 0x1 Items)
T73CC 002:890.539   CPU_ReadMem(4 bytes @ 0xE0040FD0)
T73CC 002:892.430   Data:  04 00 00 00
T73CC 002:892.442   Debug reg: TPIU_PID4
T73CC 002:892.445 - 1.911ms returns 1 (0x1)
T73CC 002:892.452 JLINK_ReadMemU32(0xE0040FD4, 0x1 Items)
T73CC 002:892.456   CPU_ReadMem(4 bytes @ 0xE0040FD4)
T73CC 002:894.341   Data:  00 00 00 00
T73CC 002:894.346   Debug reg: TPIU_PID5
T73CC 002:894.348 - 1.897ms returns 1 (0x1)
T73CC 002:894.355 JLINK_ReadMemU32(0xE0040FD8, 0x1 Items)
T73CC 002:894.364   CPU_ReadMem(4 bytes @ 0xE0040FD8)
T73CC 002:896.273   Data:  00 00 00 00
T73CC 002:896.281   Debug reg: TPIU_PID6
T73CC 002:896.284 - 1.928ms returns 1 (0x1)
T73CC 002:896.291 JLINK_ReadMemU32(0xE0040FDC, 0x1 Items)
T73CC 002:896.297   CPU_ReadMem(4 bytes @ 0xE0040FDC)
T73CC 002:898.045   Data:  00 00 00 00
T73CC 002:898.049   Debug reg: TPIU_PID7
T73CC 002:898.052 - 1.761ms returns 1 (0x1)
T73CC 002:898.059 JLINK_ReadMemU32(0xE0040FE0, 0x1 Items)
T73CC 002:898.064   CPU_ReadMem(4 bytes @ 0xE0040FE0)
T73CC 002:899.830   Data:  A1 00 00 00
T73CC 002:899.844   Debug reg: TPIU_PID[0]
T73CC 002:899.849 - 1.789ms returns 1 (0x1)
T73CC 002:899.879 JLINK_ReadMemU32(0xE0040FE4, 0x1 Items)
T73CC 002:899.889   CPU_ReadMem(4 bytes @ 0xE0040FE4)
T73CC 002:901.653   Data:  B9 00 00 00
T73CC 002:901.662   Debug reg: TPIU_PID[1]
T73CC 002:901.665 - 1.786ms returns 1 (0x1)
T73CC 002:901.672 JLINK_ReadMemU32(0xE0040FE8, 0x1 Items)
T73CC 002:901.678   CPU_ReadMem(4 bytes @ 0xE0040FE8)
T73CC 002:903.502   Data:  0B 00 00 00
T73CC 002:903.506   Debug reg: TPIU_PID[2]
T73CC 002:903.509 - 1.837ms returns 1 (0x1)
T73CC 002:903.515 JLINK_ReadMemU32(0xE0040FEC, 0x1 Items)
T73CC 002:903.520   CPU_ReadMem(4 bytes @ 0xE0040FEC)
T73CC 002:905.364   Data:  00 00 00 00
T73CC 002:905.368   Debug reg: TPIU_PID[3]
T73CC 002:905.371 - 1.856ms returns 1 (0x1)
T73CC 002:905.377 JLINK_ReadMemU32(0xE0040FF0, 0x1 Items)
T73CC 002:905.382   CPU_ReadMem(4 bytes @ 0xE0040FF0)
T73CC 002:907.131   Data:  0D 00 00 00
T73CC 002:907.165   Debug reg: TPIU_CID[0]
T73CC 002:907.168 - 1.791ms returns 1 (0x1)
T73CC 002:907.173 JLINK_ReadMemU32(0xE0040FF4, 0x1 Items)
T73CC 002:907.177   CPU_ReadMem(4 bytes @ 0xE0040FF4)
T73CC 002:909.055   Data:  90 00 00 00
T73CC 002:909.062   Debug reg: TPIU_CID[1]
T73CC 002:909.065 - 1.892ms returns 1 (0x1)
T73CC 002:909.072 JLINK_ReadMemU32(0xE0040FF8, 0x1 Items)
T73CC 002:909.076   CPU_ReadMem(4 bytes @ 0xE0040FF8)
T73CC 002:910.939   Data:  05 00 00 00
T73CC 002:910.943   Debug reg: TPIU_CID[2]
T73CC 002:910.946 - 1.874ms returns 1 (0x1)
T73CC 002:910.951 JLINK_ReadMemU32(0xE0040FFC, 0x1 Items)
T73CC 002:910.955   CPU_ReadMem(4 bytes @ 0xE0040FFC)
T73CC 002:912.849   Data:  B1 00 00 00
T73CC 002:912.856   Debug reg: TPIU_CID[3]
T73CC 002:912.858 - 1.907ms returns 1 (0x1)
T73CC 002:912.868 JLINK_GetEmuCaps()
T73CC 002:912.872 - 0.003ms returns 0xF9FF7BFF
T73CC 002:913.049 JLINK_GetEmuCaps()
T73CC 002:913.053 - 0.004ms returns 0xF9FF7BFF
T73CC 002:913.057 JLINK_GetEmuCaps()
T73CC 002:913.060 - 0.002ms returns 0xF9FF7BFF
T73CC 002:913.063 JLINK_GetEmuCaps()
T73CC 002:913.065 - 0.002ms returns 0xF9FF7BFF
T73CC 002:913.068 JLINK_GetEmuCaps()
T73CC 002:913.071 - 0.002ms returns 0xF9FF7BFF
T73CC 002:913.074 JLINK_GetEmuCaps()
T73CC 002:913.077 - 0.003ms returns 0xF9FF7BFF
T73CC 002:913.080 JLINK_GetEmuCaps()
T73CC 002:913.083 - 0.002ms returns 0xF9FF7BFF
T73CC 002:913.086 JLINK_GetEmuCaps()
T73CC 002:913.089 - 0.002ms returns 0xF9FF7BFF
T73CC 002:913.092 JLINK_GetEmuCaps()
T73CC 002:913.094 - 0.002ms returns 0xF9FF7BFF
T73CC 002:913.098 JLINK_GetEmuCaps()
T73CC 002:913.100 - 0.002ms returns 0xF9FF7BFF
T73CC 002:913.310 JLINK_ReadMemU32(0xE0041000, 0x1 Items)
T73CC 002:913.318   CPU_ReadMem(4 bytes @ 0xE0041000)
T73CC 002:915.088   Data:  00 00 00 00
T73CC 002:915.096   Debug reg: ETM_CR
T73CC 002:915.099 - 1.789ms returns 1 (0x1)
T73CC 002:915.110 JLINK_WriteU32_64(0xE0041000, 0x00000400)
T73CC 002:915.114   Debug reg: ETM_CR
T73CC 002:915.271   CPU_WriteMem(4 bytes @ 0xE0041000)
T73CC 002:916.493 - 1.384ms returns 0 (0x00000000)
T73CC 002:916.508 JLINK_ReadMemU32(0xE0041004, 0x1 Items)
T73CC 002:916.514   CPU_ReadMem(4 bytes @ 0xE0041004)
T73CC 002:918.329   Data:  00 00 00 00
T73CC 002:918.337   Debug reg: ETMCCR
T73CC 002:918.340 - 1.832ms returns 1 (0x1)
T73CC 002:921.032 JLINK_ReadMemU32(0x40080008, 0x1 Items)
T73CC 002:921.053   CPU_ReadMem(4 bytes @ 0x40080008)
T73CC 002:922.880   Data:  00 00 00 00
T73CC 002:922.896 - 1.864ms returns 1 (0x1)
T73CC 002:922.962 JLINK_WriteMem(0x4003003C, 0x4 Bytes, ...)
T73CC 002:922.966   Data:  05 00 00 00
T73CC 002:923.121   CPU_WriteMem(4 bytes @ 0x4003003C)
T73CC 002:924.417 - 1.457ms returns 0x4
T73CC 002:924.449 JLINK_ReadMemU32(0x40030040, 0x1 Items)
T73CC 002:924.456   CPU_ReadMem(4 bytes @ 0x40030040)
T73CC 002:926.262   Data:  00 00 00 00
T73CC 002:926.274 - 1.825ms returns 1 (0x1)
T73CC 002:926.309 JLINK_WriteMem(0x40030040, 0x4 Bytes, ...)
T73CC 002:926.314   Data:  00 00 00 00
T73CC 002:926.321   CPU_WriteMem(4 bytes @ 0x40030040)
T73CC 002:927.585 - 1.277ms returns 0x4
T73CC 002:927.615 JLINK_WriteMem(0x4003003C, 0x4 Bytes, ...)
T73CC 002:927.619   Data:  00 00 00 00
T73CC 002:927.625   CPU_WriteMem(4 bytes @ 0x4003003C)
T73CC 002:928.936 - 1.323ms returns 0x4
T73CC 002:929.414 JLINK_GetSpeed()
T73CC 002:929.420 - 0.007ms returns 1000
T73CC 002:929.425 JLINK_SetMaxSpeed()
T73CC 002:929.885 - 0.461ms
T73CC 002:929.895 JLINK_BeginDownload(Flags = 0x00000003)
T73CC 002:929.899 - 0.004ms
T73CC 002:938.878 JLINK_WriteMem(0x20000100, 0x400 Bytes, ...)
T73CC 002:938.894   Data:  00 00 01 20 75 04 00 20 00 00 00 00 00 00 00 00 ...
T73CC 002:939.045   CPU_WriteMem(1024 bytes @ 0x20000100)
T73CC 002:949.882 - 11.006ms returns 0x400
T73CC 002:950.012 JLINK_ReadMemU32(0xE000EDFC, 0x1 Items)
T73CC 002:950.021   CPU_ReadMem(4 bytes @ 0xE000EDFC)
T73CC 002:950.768   Data:  00 00 00 01
T73CC 002:950.779   Debug reg: DEMCR
T73CC 002:950.783 - 0.771ms returns 1 (0x1)
T73CC 002:950.791 JLINK_WriteU32_64(0xE000EDFC, 0x01000000)
T73CC 002:950.795   Debug reg: DEMCR
T73CC 002:950.801 - 0.010ms returns 0 (0x00000000)
T73CC 002:950.805 JLINK_ReadMemU32(0xE0001004, 0x1 Items)
T73CC 002:950.811   CPU_ReadMem(4 bytes @ 0xE0001004)
T73CC 002:951.626   Data:  69 49 6C 00
T73CC 002:951.637   Debug reg: DWT_CYCCNT
T73CC 002:951.640 - 0.835ms returns 1 (0x1)
T73CC 002:951.727 JLINK_ReadMemU32(0x20000100, 0x1 Items)
T73CC 002:951.743   CPU_ReadMem(64 bytes @ 0x20000100)
T73CC 002:953.116    -- Updating C cache (64 bytes @ 0x20000100)
T73CC 002:953.127    -- Read from C cache (4 bytes @ 0x20000100)
T73CC 002:953.131   Data:  00 00 01 20
T73CC 002:953.135 - 1.407ms returns 1 (0x1)
T73CC 002:953.144 JLINK_ReadMemU32(0x20000104, 0x1 Items)
T73CC 002:953.148    -- Read from C cache (4 bytes @ 0x20000104)
T73CC 002:953.151   Data:  75 04 00 20
T73CC 002:953.154 - 0.010ms returns 1 (0x1)
T73CC 002:953.161 JLINK_ReadRegs(NumRegs = 1, Indexes: 17)
T73CC 002:953.165    -- MSP=0x11001FF0
T73CC 002:953.168 - 0.007ms returns 0x00
T73CC 002:953.172 JLINK_ReadRegs(NumRegs = 1, Indexes: 18)
T73CC 002:953.174    -- PSP=0x00
T73CC 002:953.177 - 0.005ms returns 0x00
T73CC 002:953.180 JLINK_ReadRegs(NumRegs = 1, Indexes: 20)
T73CC 002:953.183    -- CFBP=0x00
T73CC 002:953.186 - 0.005ms returns 0x00
T73CC 002:953.190 JLINK_WriteReg(MSP, 0x20010000)
T73CC 002:953.195 - 0.005ms returns 0
T73CC 002:953.200 JLINK_ReadRegs(NumRegs = 1, Indexes: 15)
T73CC 002:953.204    -- R15 (PC)=0x1000118E
T73CC 002:953.207 - 0.007ms returns 0x00
T73CC 002:953.210 JLINK_WriteReg(R15 (PC), 0x20000474)
T73CC 002:953.213 - 0.003ms returns 0
T73CC 002:953.217 JLINK_ReadRegs(NumRegs = 1, Indexes: 0)
T73CC 002:953.220    -- R0=0x00
T73CC 002:953.223 - 0.006ms returns 0x00
T73CC 002:953.226 JLINK_ReadRegs(NumRegs = 1, Indexes: 1)
T73CC 002:953.229    -- R1=0x04
T73CC 002:953.232 - 0.005ms returns 0x00
T73CC 002:953.234 JLINK_ReadRegs(NumRegs = 1, Indexes: 2)
T73CC 002:953.237    -- R2=0x40030000
T73CC 002:953.240 - 0.005ms returns 0x00
T73CC 002:953.243 JLINK_ReadRegs(NumRegs = 1, Indexes: 3)
T73CC 002:953.246    -- R3=0x05
T73CC 002:953.248 - 0.005ms returns 0x00
T73CC 002:953.251 JLINK_ReadRegs(NumRegs = 1, Indexes: 4)
T73CC 002:953.254    -- R4=0x40090000
T73CC 002:953.257 - 0.005ms returns 0x00
T73CC 002:953.260 JLINK_ReadRegs(NumRegs = 1, Indexes: 5)
T73CC 002:953.263    -- R5=0x40030000
T73CC 002:953.265 - 0.005ms returns 0x00
T73CC 002:953.268 JLINK_ReadRegs(NumRegs = 1, Indexes: 6)
T73CC 002:953.274    -- R6=0x03
T73CC 002:953.277 - 0.009ms returns 0x00
T73CC 002:953.280 JLINK_ReadRegs(NumRegs = 1, Indexes: 7)
T73CC 002:953.283    -- R7=0x00
T73CC 002:953.286 - 0.005ms returns 0x00
T73CC 002:953.288 JLINK_ReadRegs(NumRegs = 1, Indexes: 8)
T73CC 002:953.292    -- R8=0x01
T73CC 002:953.295 - 0.006ms returns 0x00
T73CC 002:953.298 JLINK_ReadRegs(NumRegs = 1, Indexes: 9)
T73CC 002:953.301    -- R9=0x40092000
T73CC 002:953.304 - 0.005ms returns 0x00
T73CC 002:953.306 JLINK_ReadRegs(NumRegs = 1, Indexes: 10)
T73CC 002:953.309    -- R10=0x40090000
T73CC 002:953.312 - 0.005ms returns 0x00
T73CC 002:953.315 JLINK_ReadRegs(NumRegs = 1, Indexes: 11)
T73CC 002:953.318    -- R11=0x400000D
T73CC 002:953.321 - 0.005ms returns 0x00
T73CC 002:953.324 JLINK_ReadRegs(NumRegs = 1, Indexes: 12)
T73CC 002:953.327    -- R12=0x6000
T73CC 002:953.330 - 0.005ms returns 0x00
T73CC 002:953.333 JLINK_ReadRegs(NumRegs = 1, Indexes: 17)
T73CC 002:953.336    -- MSP=0x20010000
T73CC 002:953.338 - 0.005ms returns 0x00
T73CC 002:953.341 JLINK_ReadRegs(NumRegs = 1, Indexes: 18)
T73CC 002:953.344    -- PSP=0x00
T73CC 002:953.347 - 0.005ms returns 0x00
T73CC 002:953.350 JLINK_ReadRegs(NumRegs = 1, Indexes: 14)
T73CC 002:953.353    -- R14=0x100011D1
T73CC 002:953.355 - 0.005ms returns 0x00
T73CC 002:953.358 JLINK_ReadRegs(NumRegs = 1, Indexes: 15)
T73CC 002:953.361    -- R15 (PC)=0x20000474
T73CC 002:953.364 - 0.005ms returns 0x00
T73CC 002:953.367 JLINK_ReadRegs(NumRegs = 1, Indexes: 16)
T73CC 002:953.370    -- XPSR=0x61000000
T73CC 002:953.372 - 0.005ms returns 0x00
T73CC 002:953.376 JLINK_ReadRegs(NumRegs = 1, Indexes: 20)
T73CC 002:953.378    -- CFBP=0x00
T73CC 002:953.381 - 0.005ms returns 0x00
T73CC 002:953.385 JLINK_WriteReg(XPSR, 0x61000000)
T73CC 002:953.388 - 0.003ms returns 0
T73CC 002:953.398 JLINK_ReadRegs(NumRegs = 1, Indexes: 15)
T73CC 002:953.400    -- R15 (PC)=0x20000474
T73CC 002:953.403 - 0.005ms returns 0x00
T73CC 002:954.260 JLINK_WriteMem(0x2000FE74, 0x4 Bytes, ...)
T73CC 002:954.268   Data:  00 00 00 00
T73CC 002:954.276   CPU_WriteMem(4 bytes @ 0x2000FE74)
T73CC 002:954.759 - 0.500ms returns 0x4
T73CC 002:954.820 JLINK_WriteMem(0x2000FE60, 0x14 Bytes, ...)
T73CC 002:954.824   Data:  00 00 00 00 00 00 00 00 00 00 00 00 00 05 00 20 ...
T73CC 002:954.832   CPU_WriteMem(20 bytes @ 0x2000FE60)
T73CC 002:955.666 - 0.848ms returns 0x14
T73CC 002:955.710 JLINK_WriteReg(R15 (PC), 0x20000474)
T73CC 002:955.716 - 0.006ms returns 0
T73CC 002:955.722 JLINK_ReadRegs(NumRegs = 1, Indexes: 0)
T73CC 002:955.726    -- R0=0x00
T73CC 002:955.729 - 0.007ms returns 0x00
T73CC 002:955.733 JLINK_ReadRegs(NumRegs = 1, Indexes: 1)
T73CC 002:955.736    -- R1=0x04
T73CC 002:955.739 - 0.006ms returns 0x00
T73CC 002:955.742 JLINK_ReadRegs(NumRegs = 1, Indexes: 2)
T73CC 002:955.745    -- R2=0x40030000
T73CC 002:955.748 - 0.006ms returns 0x00
T73CC 002:955.752 JLINK_ReadRegs(NumRegs = 1, Indexes: 3)
T73CC 002:955.754    -- R3=0x05
T73CC 002:955.757 - 0.006ms returns 0x00
T73CC 002:955.760 JLINK_ReadRegs(NumRegs = 1, Indexes: 4)
T73CC 002:955.763    -- R4=0x40090000
T73CC 002:955.766 - 0.006ms returns 0x00
T73CC 002:955.769 JLINK_ReadRegs(NumRegs = 1, Indexes: 5)
T73CC 002:955.772    -- R5=0x40030000
T73CC 002:955.775 - 0.006ms returns 0x00
T73CC 002:955.778 JLINK_ReadRegs(NumRegs = 1, Indexes: 6)
T73CC 002:955.781    -- R6=0x03
T73CC 002:955.784 - 0.005ms returns 0x00
T73CC 002:955.787 JLINK_ReadRegs(NumRegs = 1, Indexes: 7)
T73CC 002:955.790    -- R7=0x00
T73CC 002:955.793 - 0.005ms returns 0x00
T73CC 002:955.796 JLINK_ReadRegs(NumRegs = 1, Indexes: 8)
T73CC 002:955.799    -- R8=0x01
T73CC 002:955.802 - 0.006ms returns 0x00
T73CC 002:955.805 JLINK_ReadRegs(NumRegs = 1, Indexes: 9)
T73CC 002:955.808    -- R9=0x40092000
T73CC 002:955.811 - 0.006ms returns 0x00
T73CC 002:955.814 JLINK_ReadRegs(NumRegs = 1, Indexes: 10)
T73CC 002:955.818    -- R10=0x40090000
T73CC 002:955.820 - 0.006ms returns 0x00
T73CC 002:955.824 JLINK_ReadRegs(NumRegs = 1, Indexes: 11)
T73CC 002:955.854    -- R11=0x400000D
T73CC 002:955.857 - 0.033ms returns 0x00
T73CC 002:955.860 JLINK_ReadRegs(NumRegs = 1, Indexes: 12)
T73CC 002:955.863    -- R12=0x6000
T73CC 002:955.866 - 0.006ms returns 0x00
T73CC 002:955.869 JLINK_ReadRegs(NumRegs = 1, Indexes: 17)
T73CC 002:955.873    -- MSP=0x20010000
T73CC 002:955.876 - 0.006ms returns 0x00
T73CC 002:955.879 JLINK_ReadRegs(NumRegs = 1, Indexes: 18)
T73CC 002:955.882    -- PSP=0x00
T73CC 002:955.885 - 0.006ms returns 0x00
T73CC 002:955.888 JLINK_ReadRegs(NumRegs = 1, Indexes: 14)
T73CC 002:955.891    -- R14=0x100011D1
T73CC 002:955.894 - 0.006ms returns 0x00
T73CC 002:955.897 JLINK_ReadRegs(NumRegs = 1, Indexes: 15)
T73CC 002:955.900    -- R15 (PC)=0x20000474
T73CC 002:955.903 - 0.006ms returns 0x00
T73CC 002:955.906 JLINK_ReadRegs(NumRegs = 1, Indexes: 16)
T73CC 002:955.909    -- XPSR=0x61000000
T73CC 002:955.912 - 0.006ms returns 0x00
T73CC 002:955.915 JLINK_ReadRegs(NumRegs = 1, Indexes: 20)
T73CC 002:955.918    -- CFBP=0x00
T73CC 002:955.921 - 0.006ms returns 0x00
T73CC 002:955.926 JLINK_WriteReg(XPSR, 0x61000000)
T73CC 002:955.929 - 0.003ms returns 0
T73CC 002:955.956 JLINK_SetBPEx(Addr = 0x20000194, Type = 0xFFFFFFF2)
T73CC 002:955.962   CPU_ReadMem(2 bytes @ 0x20000194)
T73CC 002:956.717 - 0.762ms returns 0x00000001
T73CC 002:956.736 JLINK_WriteVectorCatch(0x00000000)
T73CC 002:956.741 - 0.006ms returns 0
T28E4 002:957.621 JLINK_ReadRegs(NumRegs = 1, Indexes: 15)
T28E4 002:957.640    -- R15 (PC)=0x20000474
T28E4 002:957.645 - 0.024ms returns 0x00
T28E4 002:957.659 JLINK_ReadMemU16(0x20000474, 0x1 Items)
T28E4 002:957.671   CPU_ReadMem(64 bytes @ 0x20000440)
T28E4 002:959.081    -- Updating C cache (64 bytes @ 0x20000440)
T28E4 002:959.093    -- Read from C cache (2 bytes @ 0x20000474)
T28E4 002:959.097   Data:  FF F7
T28E4 002:959.100 - 1.441ms returns 1 (0x1)
T28E4 002:959.118 JLINK_WriteVectorCatch(0x00000000)
T28E4 002:959.123 - 0.005ms returns 0
T28E4 002:959.130 JLINK_ReadMemU32(0xE000EDFC, 0x1 Items)
T28E4 002:959.135   Data:  00 00 00 01
T28E4 002:959.138   Debug reg: DEMCR
T28E4 002:959.141 - 0.011ms returns 1 (0x1)
T28E4 002:959.145 JLINK_WriteU32_64(0xE000EDFC, 0x01000000)
T28E4 002:959.148   Debug reg: DEMCR
T28E4 002:959.153   CPU_WriteMem(2 bytes @ 0x20000194)
T28E4 002:959.781 - 0.637ms returns 0 (0x00000000)
T28E4 002:959.796 JLINK_ReadMemU32(0xE0002000, 0x1 Items)
T28E4 002:959.802   CPU_ReadMem(4 bytes @ 0xE0002000)
T28E4 002:960.533   Data:  61 02 00 00
T28E4 002:960.544 - 0.748ms returns 1 (0x1)
T28E4 002:960.552 JLINK_ReadMemU32(0xE0002000, 0x1 Items)
T28E4 002:960.558   CPU_ReadMem(4 bytes @ 0xE0002000)
T28E4 002:961.193   Data:  61 02 00 00
T28E4 002:961.205 - 0.653ms returns 1 (0x1)
T28E4 002:961.214 JLINK_ReadMemU32(0xE0001000, 0x1 Items)
T28E4 002:961.221   CPU_ReadMem(4 bytes @ 0xE0001000)
T28E4 002:961.836   Data:  01 00 00 40
T28E4 002:961.846   Debug reg: DWT_CTRL
T28E4 002:961.849 - 0.635ms returns 1 (0x1)
T28E4 002:961.856 JLINK_ReadMemU32(0xE000EDFC, 0x1 Items)
T28E4 002:961.862   Data:  00 00 00 01
T28E4 002:961.866   Debug reg: DEMCR
T28E4 002:961.868 - 0.012ms returns 1 (0x1)
T28E4 002:961.873 JLINK_WriteU32_64(0xE000EDFC, 0x01000000)
T28E4 002:961.877   Debug reg: DEMCR
T28E4 002:961.882 - 0.008ms returns 0 (0x00000000)
T28E4 002:961.901 JLINK_WriteU32_64(0xE0001028, 0x00000000)
T28E4 002:961.914   Debug reg: DWT_FUNC[0]
T28E4 002:961.922 - 0.021ms returns 0 (0x00000000)
T28E4 002:961.929 JLINK_WriteU32_64(0xE0001038, 0x00000000)
T28E4 002:961.932   Debug reg: DWT_FUNC[1]
T28E4 002:961.936 - 0.007ms returns 0 (0x00000000)
T28E4 002:961.940 JLINK_WriteU32_64(0xE0001048, 0x00000000)
T28E4 002:961.943   Debug reg: DWT_FUNC[2]
T28E4 002:961.946 - 0.006ms returns 0 (0x00000000)
T28E4 002:961.950 JLINK_WriteU32_64(0xE0001058, 0x00000000)
T28E4 002:961.953   Debug reg: DWT_FUNC[3]
T28E4 002:961.956 - 0.006ms returns 0 (0x00000000)
T28E4 002:961.970 JLINK_Go()
T28E4 002:961.978   CPU_ReadMem(4 bytes @ 0xE0001000)
T28E4 002:962.634   CPU_WriteMem(4 bytes @ 0xE0001028)
T28E4 002:962.669   CPU_WriteMem(4 bytes @ 0xE0001038)
T28E4 002:962.672   CPU_WriteMem(4 bytes @ 0xE0001048)
T28E4 002:962.676   CPU_WriteMem(4 bytes @ 0xE0001058)
T28E4 002:962.679   CPU_WriteMem(4 bytes @ 0xE0002008)
T28E4 002:962.682   CPU_WriteMem(4 bytes @ 0xE000200C)
T28E4 002:962.685   CPU_WriteMem(4 bytes @ 0xE0002010)
T28E4 002:962.688   CPU_WriteMem(4 bytes @ 0xE0002014)
T28E4 002:962.692   CPU_WriteMem(4 bytes @ 0xE0002018)
T28E4 002:962.695   CPU_WriteMem(4 bytes @ 0xE000201C)
T28E4 002:967.986 - 6.017ms
T28E4 002:969.262 JLINK_IsHalted()
T28E4 002:974.581   CPU_ReadMem(2 bytes @ 0x20000194)
T28E4 002:975.190 - 5.929ms returns TRUE
T28E4 002:975.212 JLINK_ReadRegs(NumRegs = 1, Indexes: 15)
T28E4 002:975.218    -- R15 (PC)=0x20000194
T28E4 002:975.222 - 0.009ms returns 0x00
T28E4 002:975.227 JLINK_ReadMemU16(0x20000194, 0x1 Items)
T28E4 002:975.234    -- Merging existing BP[0]: 0xE7FE @ 0x20000194
T28E4 002:975.238    -- Merging existing BP[0]: 0xE7FE @ 0x20000194
T28E4 002:975.241   Data:  FE E7
T28E4 002:975.244 - 0.017ms returns 1 (0x1)
T28E4 002:975.249 JLINK_ReadMemU32(0xE000EDFC, 0x1 Items)
T28E4 002:975.253   Data:  00 00 00 01
T28E4 002:975.256   Debug reg: DEMCR
T28E4 002:975.259 - 0.011ms returns 1 (0x1)
T28E4 002:975.264 JLINK_WriteU32_64(0xE000EDFC, 0x01000000)
T28E4 002:975.267   Debug reg: DEMCR
T28E4 002:975.271 - 0.007ms returns 0 (0x00000000)
T28E4 002:975.275 JLINK_WriteVectorCatch(0x00000000)
T28E4 002:975.279 - 0.003ms returns 0
T28E4 002:975.282 JLINK_WriteU32_64(0xE0001028, 0x00000000)
T28E4 002:975.286   Debug reg: DWT_FUNC[0]
T28E4 002:975.289 - 0.007ms returns 0 (0x00000000)
T28E4 002:975.293 JLINK_WriteU32_64(0xE0001038, 0x00000000)
T28E4 002:975.296   Debug reg: DWT_FUNC[1]
T28E4 002:975.299 - 0.006ms returns 0 (0x00000000)
T28E4 002:975.303 JLINK_WriteU32_64(0xE0001048, 0x00000000)
T28E4 002:975.307   Debug reg: DWT_FUNC[2]
T28E4 002:975.310 - 0.007ms returns 0 (0x00000000)
T28E4 002:975.313 JLINK_WriteU32_64(0xE0001058, 0x00000000)
T28E4 002:975.316   Debug reg: DWT_FUNC[3]
T28E4 002:975.319 - 0.006ms returns 0 (0x00000000)
T28E4 002:975.485 JLINK_ReadMemU32(0x2000FE60, 0x5 Items)
T28E4 002:975.491   CPU_ReadMem(64 bytes @ 0x2000FE40)
T28E4 002:976.755    -- Updating C cache (64 bytes @ 0x2000FE40)
T28E4 002:976.766    -- Read from C cache (20 bytes @ 0x2000FE60)
T28E4 002:976.771   Data:  00 00 00 00 00 00 00 00 00 00 00 00 00 05 00 20 ...
T28E4 002:976.776 - 1.291ms returns 5 (0x5)
T28E4 002:976.958 JLINK_WriteMem(0x20000500, 0x38 Bytes, ...)
T28E4 002:976.971   Data:  00 00 00 00 00 20 00 00 00 20 00 00 00 20 00 00 ...
T28E4 002:976.996   CPU_WriteMem(56 bytes @ 0x20000500)
T28E4 002:977.988 - 1.031ms returns 0x38
T28E4 002:978.017 JLINK_WriteMem(0x2000FE60, 0x14 Bytes, ...)
T28E4 002:978.021   Data:  00 00 00 00 07 00 00 00 00 00 00 00 00 05 00 20 ...
T28E4 002:978.028   CPU_WriteMem(20 bytes @ 0x2000FE60)
T28E4 002:978.773 - 0.758ms returns 0x14
T28E4 002:978.803 JLINK_WriteReg(R15 (PC), 0x20000484)
T28E4 002:978.808 - 0.005ms returns 0
T28E4 002:978.814 JLINK_ReadRegs(NumRegs = 1, Indexes: 0)
T28E4 002:978.818    -- R0=0x00
T28E4 002:978.822 - 0.007ms returns 0x00
T28E4 002:978.825 JLINK_ReadRegs(NumRegs = 1, Indexes: 1)
T28E4 002:978.829    -- R1=0x2000FE78
T28E4 002:978.832 - 0.006ms returns 0x00
T28E4 002:978.835 JLINK_ReadRegs(NumRegs = 1, Indexes: 2)
T28E4 002:978.838    -- R2=0x00
T28E4 002:978.841 - 0.006ms returns 0x00
T28E4 002:978.844 JLINK_ReadRegs(NumRegs = 1, Indexes: 3)
T28E4 002:978.847    -- R3=0x00
T28E4 002:978.850 - 0.005ms returns 0x00
T28E4 002:978.853 JLINK_ReadRegs(NumRegs = 1, Indexes: 4)
T28E4 002:978.856    -- R4=0x40090000
T28E4 002:978.859 - 0.006ms returns 0x00
T28E4 002:978.862 JLINK_ReadRegs(NumRegs = 1, Indexes: 5)
T28E4 002:978.865    -- R5=0x40030000
T28E4 002:978.868 - 0.006ms returns 0x00
T28E4 002:978.871 JLINK_ReadRegs(NumRegs = 1, Indexes: 6)
T28E4 002:978.874    -- R6=0x03
T28E4 002:978.877 - 0.006ms returns 0x00
T28E4 002:978.882 JLINK_ReadRegs(NumRegs = 1, Indexes: 7)
T28E4 002:978.887    -- R7=0x00
T28E4 002:978.890 - 0.007ms returns 0x00
T28E4 002:978.893 JLINK_ReadRegs(NumRegs = 1, Indexes: 8)
T28E4 002:978.896    -- R8=0x01
T28E4 002:978.898 - 0.005ms returns 0x00
T28E4 002:978.902 JLINK_ReadRegs(NumRegs = 1, Indexes: 9)
T28E4 002:978.905    -- R9=0x40092000
T28E4 002:978.908 - 0.006ms returns 0x00
T28E4 002:978.911 JLINK_ReadRegs(NumRegs = 1, Indexes: 10)
T28E4 002:978.914    -- R10=0x40090000
T28E4 002:978.917 - 0.006ms returns 0x00
T28E4 002:978.920 JLINK_ReadRegs(NumRegs = 1, Indexes: 11)
T28E4 002:978.923    -- R11=0x400000D
T28E4 002:978.926 - 0.006ms returns 0x00
T28E4 002:978.929 JLINK_ReadRegs(NumRegs = 1, Indexes: 12)
T28E4 002:978.932    -- R12=0x6000
T28E4 002:978.935 - 0.006ms returns 0x00
T28E4 002:978.938 JLINK_ReadRegs(NumRegs = 1, Indexes: 17)
T28E4 002:978.942    -- MSP=0x20010000
T28E4 002:978.944 - 0.006ms returns 0x00
T28E4 002:978.948 JLINK_ReadRegs(NumRegs = 1, Indexes: 18)
T28E4 002:978.951    -- PSP=0x00
T28E4 002:978.953 - 0.006ms returns 0x00
T28E4 002:978.957 JLINK_ReadRegs(NumRegs = 1, Indexes: 14)
T28E4 002:978.960    -- R14=0x2000047D
T28E4 002:978.962 - 0.006ms returns 0x00
T28E4 002:978.966 JLINK_ReadRegs(NumRegs = 1, Indexes: 15)
T28E4 002:978.969    -- R15 (PC)=0x20000484
T28E4 002:978.972 - 0.006ms returns 0x00
T28E4 002:978.975 JLINK_ReadRegs(NumRegs = 1, Indexes: 16)
T28E4 002:978.978    -- XPSR=0x41000000
T28E4 002:978.981 - 0.006ms returns 0x00
T28E4 002:978.984 JLINK_ReadRegs(NumRegs = 1, Indexes: 20)
T28E4 002:978.987    -- CFBP=0x00
T28E4 002:978.990 - 0.006ms returns 0x00
T28E4 002:978.994 JLINK_WriteReg(XPSR, 0x41000000)
T28E4 002:978.997 - 0.003ms returns 0
T28E4 002:979.160 JLINK_ReadRegs(NumRegs = 1, Indexes: 15)
T28E4 002:979.166    -- R15 (PC)=0x20000484
T28E4 002:979.170 - 0.009ms returns 0x00
T28E4 002:979.175 JLINK_ReadMemU16(0x20000484, 0x1 Items)
T28E4 002:979.181   CPU_ReadMem(64 bytes @ 0x20000480)
T28E4 002:980.493    -- Updating C cache (64 bytes @ 0x20000480)
T28E4 002:980.508    -- Read from C cache (2 bytes @ 0x20000484)
T28E4 002:980.512   Data:  FF F7
T28E4 002:980.517 - 1.341ms returns 1 (0x1)
T28E4 002:980.533 JLINK_WriteVectorCatch(0x00000000)
T28E4 002:980.539 - 0.006ms returns 0
T28E4 002:980.544 JLINK_ReadMemU32(0xE000EDFC, 0x1 Items)
T28E4 002:980.549   Data:  00 00 00 01
T28E4 002:980.552   Debug reg: DEMCR
T28E4 002:980.555 - 0.011ms returns 1 (0x1)
T28E4 002:980.559 JLINK_WriteU32_64(0xE000EDFC, 0x01000000)
T28E4 002:980.563   Debug reg: DEMCR
T28E4 002:980.567 - 0.008ms returns 0 (0x00000000)
T28E4 002:980.571 JLINK_WriteU32_64(0xE0001028, 0x00000000)
T28E4 002:980.574   Debug reg: DWT_FUNC[0]
T28E4 002:980.578 - 0.007ms returns 0 (0x00000000)
T28E4 002:980.581 JLINK_WriteU32_64(0xE0001038, 0x00000000)
T28E4 002:980.584   Debug reg: DWT_FUNC[1]
T28E4 002:980.588 - 0.006ms returns 0 (0x00000000)
T28E4 002:980.591 JLINK_WriteU32_64(0xE0001048, 0x00000000)
T28E4 002:980.594   Debug reg: DWT_FUNC[2]
T28E4 002:980.597 - 0.006ms returns 0 (0x00000000)
T28E4 002:980.601 JLINK_WriteU32_64(0xE0001058, 0x00000000)
T28E4 002:980.604   Debug reg: DWT_FUNC[3]
T28E4 002:980.607 - 0.006ms returns 0 (0x00000000)
T28E4 002:980.618 JLINK_Go()
T28E4 002:980.624   CPU_ReadMem(4 bytes @ 0xE0001000)
T28E4 002:981.386   CPU_WriteMem(4 bytes @ 0xE0001028)
T28E4 002:981.398   CPU_WriteMem(4 bytes @ 0xE0001038)
T28E4 002:981.402   CPU_WriteMem(4 bytes @ 0xE0001048)
T28E4 002:981.404   CPU_WriteMem(4 bytes @ 0xE0001058)
T28E4 002:984.722 - 4.105ms
T28E4 002:986.670 JLINK_IsHalted()
T28E4 002:987.485 - 0.817ms returns FALSE
T28E4 002:988.958 JLINK_IsHalted()
T28E4 002:989.663 - 0.706ms returns FALSE
T28E4 002:991.021 JLINK_IsHalted()
T28E4 002:991.729 - 0.709ms returns FALSE
T28E4 002:992.926 JLINK_IsHalted()
T28E4 002:993.635 - 0.711ms returns FALSE
T28E4 002:994.965 JLINK_IsHalted()
T28E4 002:995.605 - 0.641ms returns FALSE
T28E4 002:997.001 JLINK_IsHalted()
T28E4 002:997.645 - 0.646ms returns FALSE
T28E4 002:999.066 JLINK_IsHalted()
T28E4 002:999.743 - 0.677ms returns FALSE
T28E4 003:001.172 JLINK_IsHalted()
T28E4 003:001.733 - 0.562ms returns FALSE
T28E4 003:003.067 JLINK_IsHalted()
T28E4 003:003.776 - 0.712ms returns FALSE
T28E4 003:005.369 JLINK_IsHalted()
T28E4 003:005.979 - 0.612ms returns FALSE
T28E4 003:007.815 JLINK_IsHalted()
T28E4 003:008.437 - 0.623ms returns FALSE
T28E4 003:009.910 JLINK_IsHalted()
T28E4 003:010.462 - 0.554ms returns FALSE
T28E4 003:011.847 JLINK_IsHalted()
T28E4 003:012.502 - 0.657ms returns FALSE
T28E4 003:013.912 JLINK_IsHalted()
T28E4 003:014.688 - 0.777ms returns FALSE
T28E4 003:015.916 JLINK_IsHalted()
T28E4 003:016.466 - 0.551ms returns FALSE
T28E4 003:018.458 JLINK_IsHalted()
T28E4 003:019.125 - 0.669ms returns FALSE
T28E4 003:020.497 JLINK_IsHalted()
T28E4 003:021.186 - 0.691ms returns FALSE
T28E4 003:022.462 JLINK_IsHalted()
T28E4 003:023.005 - 0.544ms returns FALSE
T28E4 003:024.323 JLINK_IsHalted()
T28E4 003:024.927 - 0.604ms returns FALSE
T28E4 003:026.913 JLINK_IsHalted()
T28E4 003:027.552 - 0.644ms returns FALSE
T28E4 003:028.884 JLINK_IsHalted()
T28E4 003:029.496 - 0.612ms returns FALSE
T28E4 003:030.914 JLINK_IsHalted()
T28E4 003:031.564 - 0.650ms returns FALSE
T28E4 003:032.914 JLINK_IsHalted()
T28E4 003:033.576 - 0.668ms returns FALSE
T28E4 003:034.885 JLINK_IsHalted()
T28E4 003:035.512 - 0.631ms returns FALSE
T28E4 003:036.914 JLINK_IsHalted()
T28E4 003:037.528 - 0.615ms returns FALSE
T28E4 003:039.051 JLINK_IsHalted()
T28E4 003:039.702 - 0.651ms returns FALSE
T28E4 003:041.047 JLINK_IsHalted()
T28E4 003:041.676 - 0.629ms returns FALSE
T28E4 003:043.050 JLINK_IsHalted()
T28E4 003:043.774 - 0.724ms returns FALSE
T28E4 003:045.048 JLINK_IsHalted()
T28E4 003:045.678 - 0.630ms returns FALSE
T28E4 003:047.126 JLINK_IsHalted()
T28E4 003:047.848 - 0.724ms returns FALSE
T28E4 003:049.296 JLINK_IsHalted()
T28E4 003:049.976 - 0.682ms returns FALSE
T28E4 003:051.304 JLINK_IsHalted()
T28E4 003:051.887 - 0.584ms returns FALSE
T28E4 003:053.196 JLINK_IsHalted()
T28E4 003:058.350   CPU_ReadMem(2 bytes @ 0x20000194)
T28E4 003:058.946 - 5.751ms returns TRUE
T28E4 003:058.982 JLINK_ReadRegs(NumRegs = 1, Indexes: 15)
T28E4 003:058.988    -- R15 (PC)=0x20000194
T28E4 003:058.992 - 0.011ms returns 0x00
T28E4 003:058.999 JLINK_ReadMemU16(0x20000194, 0x1 Items)
T28E4 003:059.004    -- Merging existing BP[0]: 0xE7FE @ 0x20000194
T28E4 003:059.008    -- Merging existing BP[0]: 0xE7FE @ 0x20000194
T28E4 003:059.011   Data:  FE E7
T28E4 003:059.014 - 0.015ms returns 1 (0x1)
T28E4 003:059.020 JLINK_ReadMemU32(0xE000EDFC, 0x1 Items)
T28E4 003:059.026   Data:  00 00 00 01
T28E4 003:059.029   Debug reg: DEMCR
T28E4 003:059.032 - 0.011ms returns 1 (0x1)
T28E4 003:059.037 JLINK_WriteU32_64(0xE000EDFC, 0x01000000)
T28E4 003:059.040   Debug reg: DEMCR
T28E4 003:059.046 - 0.009ms returns 0 (0x00000000)
T28E4 003:059.050 JLINK_WriteVectorCatch(0x00000000)
T28E4 003:059.054 - 0.004ms returns 0
T28E4 003:059.057 JLINK_WriteU32_64(0xE0001028, 0x00000000)
T28E4 003:059.061   Debug reg: DWT_FUNC[0]
T28E4 003:059.064 - 0.007ms returns 0 (0x00000000)
T28E4 003:059.068 JLINK_WriteU32_64(0xE0001038, 0x00000000)
T28E4 003:059.071   Debug reg: DWT_FUNC[1]
T28E4 003:059.074 - 0.006ms returns 0 (0x00000000)
T28E4 003:059.078 JLINK_WriteU32_64(0xE0001048, 0x00000000)
T28E4 003:059.081   Debug reg: DWT_FUNC[2]
T28E4 003:059.084 - 0.006ms returns 0 (0x00000000)
T28E4 003:059.088 JLINK_WriteU32_64(0xE0001058, 0x00000000)
T28E4 003:059.090   Debug reg: DWT_FUNC[3]
T28E4 003:059.094 - 0.006ms returns 0 (0x00000000)
T28E4 003:059.228 JLINK_ReadMemU32(0x2000FE60, 0x5 Items)
T28E4 003:059.243   CPU_ReadMem(64 bytes @ 0x2000FE40)
T28E4 003:060.600    -- Updating C cache (64 bytes @ 0x2000FE40)
T28E4 003:060.609    -- Read from C cache (20 bytes @ 0x2000FE60)
T28E4 003:060.613   Data:  00 00 00 00 00 00 00 00 00 00 00 00 00 05 00 20 ...
T28E4 003:060.617 - 1.389ms returns 5 (0x5)
T28E4 003:060.784 JLINK_WriteMem(0x20000500, 0xE000 Bytes, ...)
T28E4 003:060.790   Data:  00 40 01 20 D9 AD 03 00 0D AF 03 00 0D AF 03 00 ...
T28E4 003:060.803   CPU_WriteMem(57344 bytes @ 0x20000500)
T28E4 003:622.847 - 562.067ms returns 0xE000
T28E4 003:623.418 JLINK_WriteMem(0x2000FE60, 0x14 Bytes, ...)
T28E4 003:623.432   Data:  00 00 00 00 00 E0 00 00 00 00 00 00 00 05 00 20 ...
T28E4 003:623.445   CPU_WriteMem(20 bytes @ 0x2000FE60)
T28E4 003:624.262 - 0.845ms returns 0x14
T28E4 003:624.299 JLINK_WriteReg(R15 (PC), 0x2000047C)
T28E4 003:624.306 - 0.006ms returns 0
T28E4 003:624.323 JLINK_ReadRegs(NumRegs = 1, Indexes: 0)
T28E4 003:624.327    -- R0=0x07
T28E4 003:624.330 - 0.007ms returns 0x00
T28E4 003:624.334 JLINK_ReadRegs(NumRegs = 1, Indexes: 1)
T28E4 003:624.336    -- R1=0x00
T28E4 003:624.339 - 0.005ms returns 0x00
T28E4 003:624.342 JLINK_ReadRegs(NumRegs = 1, Indexes: 2)
T28E4 003:624.345    -- R2=0x30
T28E4 003:624.348 - 0.005ms returns 0x00
T28E4 003:624.351 JLINK_ReadRegs(NumRegs = 1, Indexes: 3)
T28E4 003:624.354    -- R3=0x00
T28E4 003:624.356 - 0.005ms returns 0x00
T28E4 003:624.360 JLINK_ReadRegs(NumRegs = 1, Indexes: 4)
T28E4 003:624.362    -- R4=0x40090000
T28E4 003:624.365 - 0.006ms returns 0x00
T28E4 003:624.368 JLINK_ReadRegs(NumRegs = 1, Indexes: 5)
T28E4 003:624.371    -- R5=0x40030000
T28E4 003:624.374 - 0.005ms returns 0x00
T28E4 003:624.377 JLINK_ReadRegs(NumRegs = 1, Indexes: 6)
T28E4 003:624.380    -- R6=0x03
T28E4 003:624.382 - 0.005ms returns 0x00
T28E4 003:624.385 JLINK_ReadRegs(NumRegs = 1, Indexes: 7)
T28E4 003:624.388    -- R7=0x00
T28E4 003:624.391 - 0.005ms returns 0x00
T28E4 003:624.394 JLINK_ReadRegs(NumRegs = 1, Indexes: 8)
T28E4 003:624.396    -- R8=0x01
T28E4 003:624.399 - 0.005ms returns 0x00
T28E4 003:624.402 JLINK_ReadRegs(NumRegs = 1, Indexes: 9)
T28E4 003:624.405    -- R9=0x40092000
